
T3398 000:545 SEGGER J-Link V4.86a Log File (0000ms, 0270ms total)
T3398 000:545 DLL Compiled: Jun 11 2014 17:22:49 (0000ms, 0270ms total)
T3398 000:545 Logging started @ 2016-07-27 16:51 (0000ms, 0270ms total)
T3398 000:545 JLINK_SetWarnOutHandler(...) (0000ms, 0270ms total)
T3398 000:545 JLINK_OpenEx(...)
Firmware: J-Link ARM V8 compiled Nov 25 2013 19:20:08
Hardware: V8.00
S/N: 12345678
Feature(s): RDI,FlashDL,FlashBP,JFlash,GDBFull  returns O.K. (0268ms, 0538ms total)
T3398 000:813 JLINK_SetErrorOutHandler(...) (0000ms, 0538ms total)
T3398 000:813 JLINK_TIF_Select(JLINKARM_TIF_JTAG)  returns 0x00 (0005ms, 0543ms total)
T3398 000:818 JLINK_SetSpeed(2000) (0000ms, 0543ms total)
T3398 000:818 JLINK_GetHardwareVersion()  returns 0x13880 (0000ms, 0543ms total)
T3398 000:818 JLINK_GetDLLVersion()  returns 48601 (0000ms, 0543ms total)
T3398 000:818 JLINK_GetFirmwareString(...) (0000ms, 0543ms total)
T3398 000:834 JLINK_GetDLLVersion()  returns 48601 (0000ms, 0543ms total)
T3398 000:834 JLINK_GetCompileDateTime() (0000ms, 0543ms total)
T3398 000:840 JLINK_GetFirmwareString(...) (0000ms, 0543ms total)
T3398 000:844 JLINK_GetHardwareVersion()  returns 0x13880 (0000ms, 0543ms total)
T3398 000:862 JLINK_GetIdData(...) >0x2F8 JTAG>TotalIRLen = 4, IRPrint = 0x01 >0x30 JTAG> >0x210 JTAG> >0x70 JTAG> >0x40 JTAG> >0x40 JTAG> >0x40 JTAG> >0x48 JTAG> >0x78 JTAG> >0x40 JTAG> >0x30 JTAG> >0x40 JTAG> >0x40 JTAG> >0x30 JTAG> >0x40 JTAG> >0x48 JTAG>Found Cortex-M3 r2p0, Little endian. -- CPU_WriteMem(4 bytes @ 0xE0002000) -- CPU_ReadMem(4 bytes @ 0xE000EDF0) -- CPU_ReadMem(4 bytes @ 0xE0002000)FPUnit: 6 code (BP) slots and 2 literal slots -- CPU_ReadMem(4 bytes @ 0xE000EDFC)
 -- CPU_ReadMem(4 bytes @ 0xE0001000) -- CPU_WriteMem(4 bytes @ 0xE0001000) -- CPU_ReadMem(4 bytes @ 0xE00FF010)TPIU fitted. -- CPU_ReadMem(4 bytes @ 0xE00FF014)ETM fitted. -- CPU_ReadMem(4 bytes @ 0xE00FF018) ScanLen=4 NumDevices=1 aId[0]=0x4BA00477 aIrRead[0]=0 aScanLen[0]=0 aScanRead[0]=0 (0037ms, 0580ms total)
T3398 000:899 JLINK_JTAG_GetDeviceID(DeviceIndex = 0)  returns 0x4BA00477 (0000ms, 0580ms total)
T3398 000:899 JLINK_JTAG_GetDeviceInfo(DeviceIndex = 0)  returns 0x00 (0000ms, 0580ms total)
T3398 000:899 JLINK_ReadMem (0xE00FF000, 0x0018 Bytes, ...) -- CPU is running -- CPU_ReadMem(24 bytes @ 0xE00FF000) - Data: 03 F0 F0 FF 03 20 F0 FF 03 30 F0 FF 03 10 F0 FF ...  returns 0x00 (0001ms, 0581ms total)
T3398 000:900 JLINK_ReadMemU32(0xE000ED00, 0x0001 Items, ...) -- CPU is running -- CPU_ReadMem(4 bytes @ 0xE000ED00) - Data: 30 C2 2F 41  returns 0x01 (0001ms, 0582ms total)
T3398 000:901 JLINK_Reset() -- CPU is running -- CPU_WriteMem(4 bytes @ 0xE000EDF0) -- CPU is running -- CPU_WriteMem(4 bytes @ 0xE000EDFC) -- CPU is running -- CPU_WriteMem(4 bytes @ 0xE000ED0C) -- CPU is running -- CPU_ReadMem(4 bytes @ 0xE000EDF0) -- CPU is running -- CPU_ReadMem(4 bytes @ 0xE000EDF0) -- CPU is running -- CPU_WriteMem(4 bytes @ 0xE000EDF0) -- CPU is running -- CPU_WriteMem(4 bytes @ 0xE000EDFC) -- CPU is running -- CPU_ReadMem(4 bytes @ 0xE000EDF0) >0x78 JTAG> >0x40 JTAG> >0x30 JTAG>
 >0x40 JTAG> >0x48 JTAG> >0x40 JTAG> -- CPU_WriteMem(4 bytes @ 0xE000EDFC) -- CPU_WriteMem(4 bytes @ 0xE0001028) -- CPU_WriteMem(4 bytes @ 0xE0001038) -- CPU_WriteMem(4 bytes @ 0xE0001048) -- CPU_WriteMem(4 bytes @ 0xE0001058) -- CPU_WriteMem(4 bytes @ 0xE000EDFC) -- CPU_WriteMem(4 bytes @ 0xE0001028) -- CPU_WriteMem(4 bytes @ 0xE0001028) -- CPU_WriteMem(4 bytes @ 0xE000EDFC) -- CPU_WriteMem(4 bytes @ 0xE0001028) -- CPU_WriteMem(4 bytes @ 0xE0001028) -- CPU_WriteMem(4 bytes @ 0xE000EDFC)
 -- CPU_WriteMem(4 bytes @ 0xE0001028) -- CPU_WriteMem(4 bytes @ 0xE0001028) -- CPU_WriteMem(4 bytes @ 0xE000EDFC) -- CPU_WriteMem(4 bytes @ 0xE0001028) -- CPU_WriteMem(4 bytes @ 0xE0001028) -- CPU_WriteMem(4 bytes @ 0xE000EDFC) -- CPU_WriteMem(4 bytes @ 0xE0001050) -- CPU_WriteMem(4 bytes @ 0xE0001054) -- CPU_WriteMem(4 bytes @ 0xE0001058) -- CPU_WriteMem(4 bytes @ 0xE000EDFC) -- CPU_WriteMem(4 bytes @ 0xE0001058) -- CPU_ReadMem(4 bytes @ 0x00000004) -- CPU_ReadMem(4 bytes @ 0xE0002000)
 -- CPU_ReadMem(4 bytes @ 0xE0002008) -- CPU_ReadMem(4 bytes @ 0xE000200C) -- CPU_ReadMem(4 bytes @ 0xE0002010) -- CPU_ReadMem(4 bytes @ 0xE0002014) -- CPU_ReadMem(4 bytes @ 0xE0002018) -- CPU_ReadMem(4 bytes @ 0xE000201C) -- CPU_WriteMem(4 bytes @ 0xE0002000) -- CPU_WriteMem(4 bytes @ 0xE0002008) -- CPU_WriteMem(4 bytes @ 0xE000200C) -- CPU_WriteMem(4 bytes @ 0xE0002010) -- CPU_WriteMem(4 bytes @ 0xE0002014) -- CPU_WriteMem(4 bytes @ 0xE0002018) -- CPU_WriteMem(4 bytes @ 0xE000201C)
 -- CPU_WriteMem(4 bytes @ 0xE0002000) -- CPU_WriteMem(4 bytes @ 0xE0002008) -- CPU_WriteMem(4 bytes @ 0xE000200C) -- CPU_WriteMem(4 bytes @ 0xE0002010) -- CPU_WriteMem(4 bytes @ 0xE0002014) -- CPU_WriteMem(4 bytes @ 0xE0002018) -- CPU_WriteMem(4 bytes @ 0xE000201C) -- CPU_WriteMem(4 bytes @ 0xE0002000) -- CPU_ReadMem(4 bytes @ 0xE000EDFC) -- CPU_ReadMem(4 bytes @ 0xE0001000) (0297ms, 0879ms total)
T3398 001:198 JLINK_Halt()  returns 0x00 (0001ms, 0880ms total)
T3398 001:199 JLINK_IsHalted()  returns TRUE (0000ms, 0880ms total)
T3398 001:199 JLINK_ReadMemU32(0xE000EDF0, 0x0001 Items, ...) -- CPU_ReadMem(4 bytes @ 0xE000EDF0) - Data: 03 00 03 00  returns 0x01 (0001ms, 0881ms total)
T3398 001:200 JLINK_WriteU32(0xE000EDF0, 0xA05F0003) -- CPU_WriteMem(4 bytes @ 0xE000EDF0)  returns 0x00 (0000ms, 0881ms total)
T3398 001:200 JLINK_WriteU32(0xE000EDFC, 0x01000000) -- CPU_WriteMem(4 bytes @ 0xE000EDFC)  returns 0x00 (0002ms, 0883ms total)
T3398 001:202 JLINK_ReadMemU32(0xE0002000, 0x0001 Items, ...) -- CPU_ReadMem(4 bytes @ 0xE0002000) - Data: 61 02 00 00  returns 0x01 (0001ms, 0884ms total)
T3398 001:203 JLINK_ReadMemU32(0xE0001000, 0x0001 Items, ...) -- CPU_ReadMem(4 bytes @ 0xE0001000) - Data: 01 00 00 40  returns 0x01 (0001ms, 0885ms total)
T3398 001:209 JLINK_ExecCommand("Device = LPC1788", ...)Device "LPC1788" selected (512 KB flash, 64 KB RAM).  returns 0x00 (0003ms, 0888ms total)
T3398 001:212 JLINK_GetHWStatus(...)  returns 0x00 (0001ms, 0889ms total)
T3398 001:220 JLINK_GetNumBPUnits(Type = 0xFFFFFF00)  returns 0x06 (0000ms, 0889ms total)
T3398 001:220 JLINK_GetNumBPUnits(Type = 0xF0)  returns 0x2000 (0000ms, 0889ms total)
T3398 001:220 JLINK_GetNumWPUnits()  returns 0x04 (0000ms, 0889ms total)
T3398 001:230 JLINK_GetSpeed()  returns 0x7D0 (0000ms, 0889ms total)
T3398 001:237 JLINK_ReadMemU32(0xE000E004, 0x0001 Items, ...) -- CPU_ReadMem(4 bytes @ 0xE000E004) - Data: 01 00 00 00  returns 0x01 (0001ms, 0890ms total)
T3398 001:238 JLINK_WriteMem(0xE0001000, 0x001C Bytes, ...) - Data: 01 00 00 00 00 00 00 00 00 00 00 00 00 00 00 00 ... -- CPU_WriteMem(28 bytes @ 0xE0001000)  returns 0x1C (0001ms, 0891ms total)
T3398 001:239 JLINK_ReadMem (0xE0001000, 0x001C Bytes, ...) -- CPU_ReadMem(28 bytes @ 0xE0001000) - Data: 01 00 00 40 00 00 00 00 00 00 00 00 00 00 00 00 ...  returns 0x00 (0002ms, 0893ms total)
T3398 001:241 JLINK_SetResetType(JLINKARM_RESET_TYPE_ADI)  returns JLINKARM_RESET_TYPE_HALT_WP (0000ms, 0893ms total)
T3398 001:241 JLINK_Reset() -- CPU_WriteMem(4 bytes @ 0xE000EDF0) -- CPU_WriteMem(4 bytes @ 0xE000EDFC) -- CPU_WriteMem(4 bytes @ 0xE000EDF0) -- CPU_WriteMem(4 bytes @ 0xE000EDFC) -- CPU_ReadMem(4 bytes @ 0xE000EDF0) >0x40 JTAG> >0x40 JTAG> >0x30 JTAG> >0x40 JTAG> >0x48 JTAG> >0x40 JTAG> -- CPU_WriteMem(4 bytes @ 0xE000EDFC) -- CPU_WriteMem(4 bytes @ 0xE000ED0C) -- CPU_ReadMem(4 bytes @ 0xE000EDF0) -- CPU_ReadMem(4 bytes @ 0xE000EDF0) -- CPU_WriteMem(4 bytes @ 0xE000EDF0)
 -- CPU_WriteMem(4 bytes @ 0xE000EDFC) -- CPU is running -- CPU_ReadMem(4 bytes @ 0xE000EDF0) >0x40 JTAG> >0x40 JTAG> >0x30 JTAG> >0x40 JTAG> >0x48 JTAG> >0x40 JTAG> -- CPU_WriteMem(4 bytes @ 0xE000EDFC) -- CPU_WriteMem(4 bytes @ 0xE0001028) -- CPU_WriteMem(4 bytes @ 0xE0001038) -- CPU_WriteMem(4 bytes @ 0xE0001048) -- CPU_WriteMem(4 bytes @ 0xE0001058) -- CPU_WriteMem(4 bytes @ 0xE0002000) -- CPU_ReadMem(4 bytes @ 0xE000EDFC) -- CPU_ReadMem(4 bytes @ 0xE0001000) (0181ms, 1074ms total)
T3398 001:422 JLINK_Halt()  returns 0x00 (0000ms, 1074ms total)
T3398 001:422 JLINK_IsHalted()  returns TRUE (0000ms, 1074ms total)
T3398 001:427 JLINK_WriteMem(0x10000000, 0x01E4 Bytes, ...) - Data: 00 BE 0A E0 0D 78 2D 06 68 40 08 24 40 00 00 D3 ... -- CPU_WriteMem(484 bytes @ 0x10000000)  returns 0x1E4 (0004ms, 1078ms total)
T3398 001:431 JLINK_ReadMem (0x10000000, 0x01E4 Bytes, ...) -- CPU_ReadMem(512 bytes @ 0x10000000) -- Updating C cache (512 bytes @ 0x10000000) -- Read from C cache (484 bytes @ 0x10000000) - Data: 00 BE 0A E0 0D 78 2D 06 68 40 08 24 40 00 00 D3 ...  returns 0x00 (0005ms, 1083ms total)
T3398 001:436 JLINK_WriteReg(R0, 0x00000000)  returns 0x00 (0000ms, 1083ms total)
T3398 001:436 JLINK_WriteReg(R1, 0x00B71B00)  returns 0x00 (0000ms, 1083ms total)
T3398 001:436 JLINK_WriteReg(R2, 0x00000001)  returns 0x00 (0000ms, 1083ms total)
T3398 001:436 JLINK_WriteReg(R3, 0x00000000)  returns 0x00 (0000ms, 1083ms total)
T3398 001:436 JLINK_WriteReg(R4, 0x00000000)  returns 0x00 (0000ms, 1083ms total)
T3398 001:436 JLINK_WriteReg(R5, 0x00000000)  returns 0x00 (0000ms, 1083ms total)
T3398 001:436 JLINK_WriteReg(R6, 0x00000000)  returns 0x00 (0000ms, 1083ms total)
T3398 001:436 JLINK_WriteReg(R7, 0x00000000)  returns 0x00 (0000ms, 1083ms total)
T3398 001:436 JLINK_WriteReg(R8, 0x00000000)  returns 0x00 (0000ms, 1083ms total)
T3398 001:436 JLINK_WriteReg(R9, 0x100001DC)  returns 0x00 (0000ms, 1083ms total)
T3398 001:436 JLINK_WriteReg(R10, 0x00000000)  returns 0x00 (0000ms, 1083ms total)
T3398 001:436 JLINK_WriteReg(R11, 0x00000000)  returns 0x00 (0000ms, 1083ms total)
T3398 001:436 JLINK_WriteReg(R12, 0x00000000)  returns 0x00 (0000ms, 1083ms total)
T3398 001:436 JLINK_WriteReg(R13 (SP), 0x10000800)  returns 0x00 (0000ms, 1083ms total)
T3398 001:436 JLINK_WriteReg(R14, 0x10000001)  returns 0x00 (0000ms, 1083ms total)
T3398 001:436 JLINK_WriteReg(R15 (PC), 0x10000044)  returns 0x00 (0000ms, 1083ms total)
T3398 001:436 JLINK_WriteReg(XPSR, 0x01000000)  returns 0x00 (0000ms, 1083ms total)
T3398 001:436 JLINK_WriteReg(MSP, 0x10000800)  returns 0x00 (0000ms, 1083ms total)
T3398 001:436 JLINK_WriteReg(PSP, 0x10000800)  returns 0x00 (0000ms, 1083ms total)
T3398 001:436 JLINK_WriteReg(CFBP, 0x00000000)  returns 0x00 (0000ms, 1083ms total)
T3398 001:436 JLINK_SetBPEx(Addr = 0x10000000, Type = 0xFFFFFFF2)  returns 0x00000001 (0000ms, 1083ms total)
T3398 001:436 JLINK_Go() -- CPU_WriteMem(4 bytes @ 0xE0002008) -- CPU_WriteMem(4 bytes @ 0xE000200C) -- CPU_WriteMem(4 bytes @ 0xE0002010) -- CPU_WriteMem(4 bytes @ 0xE0002014) -- CPU_WriteMem(4 bytes @ 0xE0002018) -- CPU_WriteMem(4 bytes @ 0xE000201C) -- CPU_WriteMem(4 bytes @ 0xE0001004) (0007ms, 1090ms total)
T3398 001:443 JLINK_IsHalted()  returns TRUE (0005ms, 1095ms total)
T3398 001:448 JLINK_ReadReg(R15 (PC))  returns 0x10000000 (0000ms, 1090ms total)
T3398 001:448 JLINK_ClrBPEx(BPHandle = 0x00000001)  returns 0x00 (0000ms, 1090ms total)
T3398 001:448 JLINK_ReadReg(R0)  returns 0x00000000 (0000ms, 1090ms total)
T3398 001:449 JLINK_WriteReg(R0, 0x00000000)  returns 0x00 (0000ms, 1090ms total)
T3398 001:449 JLINK_WriteReg(R1, 0x00001000)  returns 0x00 (0000ms, 1090ms total)
T3398 001:449 JLINK_WriteReg(R2, 0x000000FF)  returns 0x00 (0000ms, 1090ms total)
T3398 001:449 JLINK_WriteReg(R3, 0x00000000)  returns 0x00 (0000ms, 1090ms total)
T3398 001:449 JLINK_WriteReg(R4, 0x00000000)  returns 0x00 (0000ms, 1090ms total)
T3398 001:449 JLINK_WriteReg(R5, 0x00000000)  returns 0x00 (0000ms, 1090ms total)
T3398 001:449 JLINK_WriteReg(R6, 0x00000000)  returns 0x00 (0000ms, 1090ms total)
T3398 001:449 JLINK_WriteReg(R7, 0x00000000)  returns 0x00 (0000ms, 1090ms total)
T3398 001:449 JLINK_WriteReg(R8, 0x00000000)  returns 0x00 (0000ms, 1090ms total)
T3398 001:449 JLINK_WriteReg(R9, 0x100001DC)  returns 0x00 (0000ms, 1090ms total)
T3398 001:449 JLINK_WriteReg(R10, 0x00000000)  returns 0x00 (0000ms, 1090ms total)
T3398 001:449 JLINK_WriteReg(R11, 0x00000000)  returns 0x00 (0000ms, 1090ms total)
T3398 001:449 JLINK_WriteReg(R12, 0x00000000)  returns 0x00 (0000ms, 1090ms total)
T3398 001:449 JLINK_WriteReg(R13 (SP), 0x10000800)  returns 0x00 (0000ms, 1090ms total)
T3398 001:449 JLINK_WriteReg(R14, 0x10000001)  returns 0x00 (0000ms, 1090ms total)
T3398 001:449 JLINK_WriteReg(R15 (PC), 0x10000020)  returns 0x00 (0000ms, 1090ms total)
T3398 001:449 JLINK_WriteReg(XPSR, 0x01000000)  returns 0x00 (0000ms, 1090ms total)
T3398 001:449 JLINK_WriteReg(MSP, 0x10000800)  returns 0x00 (0000ms, 1090ms total)
T3398 001:449 JLINK_WriteReg(PSP, 0x10000800)  returns 0x00 (0000ms, 1090ms total)
T3398 001:449 JLINK_WriteReg(CFBP, 0x00000000)  returns 0x00 (0000ms, 1090ms total)
T3398 001:449 JLINK_SetBPEx(Addr = 0x10000000, Type = 0xFFFFFFF2)  returns 0x00000002 (0000ms, 1090ms total)
T3398 001:449 JLINK_Go() (0003ms, 1093ms total)
T3398 001:452 JLINK_IsHalted()  returns TRUE (0006ms, 1099ms total)
T3398 001:458 JLINK_ReadReg(R15 (PC))  returns 0x10000000 (0000ms, 1093ms total)
T3398 001:458 JLINK_ClrBPEx(BPHandle = 0x00000002)  returns 0x00 (0000ms, 1093ms total)
T3398 001:458 JLINK_ReadReg(R0)  returns 0x00000001 (0000ms, 1093ms total)
T3398 001:458 JLINK_WriteReg(R0, 0x00000000)  returns 0x00 (0000ms, 1093ms total)
T3398 001:458 JLINK_WriteReg(R1, 0x00001000)  returns 0x00 (0000ms, 1093ms total)
T3398 001:458 JLINK_WriteReg(R2, 0x000000FF)  returns 0x00 (0000ms, 1093ms total)
T3398 001:458 JLINK_WriteReg(R3, 0x00000000)  returns 0x00 (0000ms, 1093ms total)
T3398 001:458 JLINK_WriteReg(R4, 0x00000000)  returns 0x00 (0000ms, 1093ms total)
T3398 001:458 JLINK_WriteReg(R5, 0x00000000)  returns 0x00 (0000ms, 1093ms total)
T3398 001:458 JLINK_WriteReg(R6, 0x00000000)  returns 0x00 (0000ms, 1093ms total)
T3398 001:458 JLINK_WriteReg(R7, 0x00000000)  returns 0x00 (0000ms, 1093ms total)
T3398 001:458 JLINK_WriteReg(R8, 0x00000000)  returns 0x00 (0000ms, 1093ms total)
T3398 001:458 JLINK_WriteReg(R9, 0x100001DC)  returns 0x00 (0000ms, 1093ms total)
T3398 001:458 JLINK_WriteReg(R10, 0x00000000)  returns 0x00 (0000ms, 1093ms total)
T3398 001:458 JLINK_WriteReg(R11, 0x00000000)  returns 0x00 (0000ms, 1093ms total)
T3398 001:458 JLINK_WriteReg(R12, 0x00000000)  returns 0x00 (0000ms, 1093ms total)
T3398 001:458 JLINK_WriteReg(R13 (SP), 0x10000800)  returns 0x00 (0000ms, 1093ms total)
T3398 001:458 JLINK_WriteReg(R14, 0x10000001)  returns 0x00 (0000ms, 1093ms total)
T3398 001:458 JLINK_WriteReg(R15 (PC), 0x10000110)  returns 0x00 (0000ms, 1093ms total)
T3398 001:458 JLINK_WriteReg(XPSR, 0x01000000)  returns 0x00 (0000ms, 1093ms total)
T3398 001:458 JLINK_WriteReg(MSP, 0x10000800)  returns 0x00 (0000ms, 1093ms total)
T3398 001:458 JLINK_WriteReg(PSP, 0x10000800)  returns 0x00 (0000ms, 1093ms total)
T3398 001:458 JLINK_WriteReg(CFBP, 0x00000000)  returns 0x00 (0000ms, 1093ms total)
T3398 001:458 JLINK_SetBPEx(Addr = 0x10000000, Type = 0xFFFFFFF2)  returns 0x00000003 (0000ms, 1093ms total)
T3398 001:458 JLINK_Go() (0002ms, 1095ms total)
T3398 001:460 JLINK_IsHalted()  returns FALSE (0001ms, 1096ms total)
T3398 001:512 JLINK_IsHalted()  returns FALSE (0001ms, 1096ms total)
T3398 001:563 JLINK_IsHalted()  returns TRUE (0006ms, 1101ms total)
T3398 001:569 JLINK_ReadReg(R15 (PC))  returns 0x10000000 (0000ms, 1095ms total)
T3398 001:569 JLINK_ClrBPEx(BPHandle = 0x00000003)  returns 0x00 (0000ms, 1095ms total)
T3398 001:569 JLINK_ReadReg(R0)  returns 0x00000000 (0000ms, 1095ms total)
T3398 001:570 JLINK_WriteReg(R0, 0x00001000)  returns 0x00 (0000ms, 1095ms total)
T3398 001:570 JLINK_WriteReg(R1, 0x00001000)  returns 0x00 (0000ms, 1095ms total)
T3398 001:570 JLINK_WriteReg(R2, 0x000000FF)  returns 0x00 (0000ms, 1095ms total)
T3398 001:570 JLINK_WriteReg(R3, 0x00000000)  returns 0x00 (0000ms, 1095ms total)
T3398 001:570 JLINK_WriteReg(R4, 0x00000000)  returns 0x00 (0000ms, 1095ms total)
T3398 001:570 JLINK_WriteReg(R5, 0x00000000)  returns 0x00 (0000ms, 1095ms total)
T3398 001:570 JLINK_WriteReg(R6, 0x00000000)  returns 0x00 (0000ms, 1095ms total)
T3398 001:570 JLINK_WriteReg(R7, 0x00000000)  returns 0x00 (0000ms, 1095ms total)
T3398 001:570 JLINK_WriteReg(R8, 0x00000000)  returns 0x00 (0000ms, 1095ms total)
T3398 001:570 JLINK_WriteReg(R9, 0x100001DC)  returns 0x00 (0000ms, 1095ms total)
T3398 001:570 JLINK_WriteReg(R10, 0x00000000)  returns 0x00 (0000ms, 1095ms total)
T3398 001:570 JLINK_WriteReg(R11, 0x00000000)  returns 0x00 (0000ms, 1095ms total)
T3398 001:570 JLINK_WriteReg(R12, 0x00000000)  returns 0x00 (0000ms, 1095ms total)
T3398 001:570 JLINK_WriteReg(R13 (SP), 0x10000800)  returns 0x00 (0000ms, 1095ms total)
T3398 001:570 JLINK_WriteReg(R14, 0x10000001)  returns 0x00 (0000ms, 1095ms total)
T3398 001:570 JLINK_WriteReg(R15 (PC), 0x10000020)  returns 0x00 (0000ms, 1095ms total)
T3398 001:570 JLINK_WriteReg(XPSR, 0x01000000)  returns 0x00 (0000ms, 1095ms total)
T3398 001:570 JLINK_WriteReg(MSP, 0x10000800)  returns 0x00 (0000ms, 1095ms total)
T3398 001:570 JLINK_WriteReg(PSP, 0x10000800)  returns 0x00 (0001ms, 1096ms total)
T3398 001:571 JLINK_WriteReg(CFBP, 0x00000000)  returns 0x00 (0000ms, 1096ms total)
T3398 001:571 JLINK_SetBPEx(Addr = 0x10000000, Type = 0xFFFFFFF2)  returns 0x00000004 (0000ms, 1096ms total)
T3398 001:571 JLINK_Go() (0002ms, 1098ms total)
T3398 001:573 JLINK_IsHalted()  returns TRUE (0006ms, 1104ms total)
T3398 001:579 JLINK_ReadReg(R15 (PC))  returns 0x10000000 (0000ms, 1098ms total)
T3398 001:579 JLINK_ClrBPEx(BPHandle = 0x00000004)  returns 0x00 (0000ms, 1098ms total)
T3398 001:579 JLINK_ReadReg(R0)  returns 0x00000001 (0000ms, 1098ms total)
T3398 001:579 JLINK_WriteReg(R0, 0x00001000)  returns 0x00 (0000ms, 1098ms total)
T3398 001:579 JLINK_WriteReg(R1, 0x00001000)  returns 0x00 (0000ms, 1098ms total)
T3398 001:579 JLINK_WriteReg(R2, 0x000000FF)  returns 0x00 (0000ms, 1098ms total)
T3398 001:579 JLINK_WriteReg(R3, 0x00000000)  returns 0x00 (0000ms, 1098ms total)
T3398 001:579 JLINK_WriteReg(R4, 0x00000000)  returns 0x00 (0000ms, 1098ms total)
T3398 001:579 JLINK_WriteReg(R5, 0x00000000)  returns 0x00 (0000ms, 1098ms total)
T3398 001:579 JLINK_WriteReg(R6, 0x00000000)  returns 0x00 (0000ms, 1098ms total)
T3398 001:579 JLINK_WriteReg(R7, 0x00000000)  returns 0x00 (0000ms, 1098ms total)
T3398 001:579 JLINK_WriteReg(R8, 0x00000000)  returns 0x00 (0000ms, 1098ms total)
T3398 001:579 JLINK_WriteReg(R9, 0x100001DC)  returns 0x00 (0000ms, 1098ms total)
T3398 001:579 JLINK_WriteReg(R10, 0x00000000)  returns 0x00 (0000ms, 1098ms total)
T3398 001:579 JLINK_WriteReg(R11, 0x00000000)  returns 0x00 (0000ms, 1098ms total)
T3398 001:579 JLINK_WriteReg(R12, 0x00000000)  returns 0x00 (0000ms, 1098ms total)
T3398 001:579 JLINK_WriteReg(R13 (SP), 0x10000800)  returns 0x00 (0000ms, 1098ms total)
T3398 001:579 JLINK_WriteReg(R14, 0x10000001)  returns 0x00 (0000ms, 1098ms total)
T3398 001:579 JLINK_WriteReg(R15 (PC), 0x10000110)  returns 0x00 (0000ms, 1098ms total)
T3398 001:579 JLINK_WriteReg(XPSR, 0x01000000)  returns 0x00 (0000ms, 1098ms total)
T3398 001:579 JLINK_WriteReg(MSP, 0x10000800)  returns 0x00 (0000ms, 1098ms total)
T3398 001:579 JLINK_WriteReg(PSP, 0x10000800)  returns 0x00 (0000ms, 1098ms total)
T3398 001:579 JLINK_WriteReg(CFBP, 0x00000000)  returns 0x00 (0000ms, 1098ms total)
T3398 001:579 JLINK_SetBPEx(Addr = 0x10000000, Type = 0xFFFFFFF2)  returns 0x00000005 (0000ms, 1098ms total)
T3398 001:579 JLINK_Go() (0003ms, 1101ms total)
T3398 001:582 JLINK_IsHalted()  returns FALSE (0001ms, 1102ms total)
T3398 001:633 JLINK_IsHalted()  returns FALSE (0001ms, 1102ms total)
T3398 001:684 JLINK_IsHalted()  returns TRUE (0006ms, 1107ms total)
T3398 001:690 JLINK_ReadReg(R15 (PC))  returns 0x10000000 (0000ms, 1101ms total)
T3398 001:690 JLINK_ClrBPEx(BPHandle = 0x00000005)  returns 0x00 (0000ms, 1101ms total)
T3398 001:690 JLINK_ReadReg(R0)  returns 0x00000000 (0000ms, 1101ms total)
T3398 001:691 JLINK_WriteReg(R0, 0x00002000)  returns 0x00 (0001ms, 1102ms total)
T3398 001:692 JLINK_WriteReg(R1, 0x00001000)  returns 0x00 (0000ms, 1102ms total)
T3398 001:692 JLINK_WriteReg(R2, 0x000000FF)  returns 0x00 (0000ms, 1102ms total)
T3398 001:692 JLINK_WriteReg(R3, 0x00000000)  returns 0x00 (0000ms, 1102ms total)
T3398 001:692 JLINK_WriteReg(R4, 0x00000000)  returns 0x00 (0000ms, 1102ms total)
T3398 001:692 JLINK_WriteReg(R5, 0x00000000)  returns 0x00 (0000ms, 1102ms total)
T3398 001:692 JLINK_WriteReg(R6, 0x00000000)  returns 0x00 (0000ms, 1102ms total)
T3398 001:692 JLINK_WriteReg(R7, 0x00000000)  returns 0x00 (0000ms, 1102ms total)
T3398 001:692 JLINK_WriteReg(R8, 0x00000000)  returns 0x00 (0000ms, 1102ms total)
T3398 001:692 JLINK_WriteReg(R9, 0x100001DC)  returns 0x00 (0000ms, 1102ms total)
T3398 001:692 JLINK_WriteReg(R10, 0x00000000)  returns 0x00 (0000ms, 1102ms total)
T3398 001:692 JLINK_WriteReg(R11, 0x00000000)  returns 0x00 (0000ms, 1102ms total)
T3398 001:692 JLINK_WriteReg(R12, 0x00000000)  returns 0x00 (0000ms, 1102ms total)
T3398 001:692 JLINK_WriteReg(R13 (SP), 0x10000800)  returns 0x00 (0000ms, 1102ms total)
T3398 001:692 JLINK_WriteReg(R14, 0x10000001)  returns 0x00 (0000ms, 1102ms total)
T3398 001:692 JLINK_WriteReg(R15 (PC), 0x10000020)  returns 0x00 (0000ms, 1102ms total)
T3398 001:692 JLINK_WriteReg(XPSR, 0x01000000)  returns 0x00 (0000ms, 1102ms total)
T3398 001:692 JLINK_WriteReg(MSP, 0x10000800)  returns 0x00 (0000ms, 1102ms total)
T3398 001:692 JLINK_WriteReg(PSP, 0x10000800)  returns 0x00 (0000ms, 1102ms total)
T3398 001:692 JLINK_WriteReg(CFBP, 0x00000000)  returns 0x00 (0000ms, 1102ms total)
T3398 001:692 JLINK_SetBPEx(Addr = 0x10000000, Type = 0xFFFFFFF2)  returns 0x00000006 (0000ms, 1102ms total)
T3398 001:692 JLINK_Go() (0003ms, 1105ms total)
T3398 001:695 JLINK_IsHalted()  returns TRUE (0005ms, 1110ms total)
T3398 001:700 JLINK_ReadReg(R15 (PC))  returns 0x10000000 (0000ms, 1105ms total)
T3398 001:700 JLINK_ClrBPEx(BPHandle = 0x00000006)  returns 0x00 (0000ms, 1105ms total)
T3398 001:700 JLINK_ReadReg(R0)  returns 0x00000001 (0000ms, 1105ms total)
T3398 001:700 JLINK_WriteReg(R0, 0x00002000)  returns 0x00 (0000ms, 1105ms total)
T3398 001:700 JLINK_WriteReg(R1, 0x00001000)  returns 0x00 (0000ms, 1105ms total)
T3398 001:700 JLINK_WriteReg(R2, 0x000000FF)  returns 0x00 (0000ms, 1105ms total)
T3398 001:700 JLINK_WriteReg(R3, 0x00000000)  returns 0x00 (0000ms, 1105ms total)
T3398 001:700 JLINK_WriteReg(R4, 0x00000000)  returns 0x00 (0000ms, 1105ms total)
T3398 001:700 JLINK_WriteReg(R5, 0x00000000)  returns 0x00 (0000ms, 1105ms total)
T3398 001:700 JLINK_WriteReg(R6, 0x00000000)  returns 0x00 (0000ms, 1105ms total)
T3398 001:700 JLINK_WriteReg(R7, 0x00000000)  returns 0x00 (0001ms, 1106ms total)
T3398 001:701 JLINK_WriteReg(R8, 0x00000000)  returns 0x00 (0000ms, 1106ms total)
T3398 001:701 JLINK_WriteReg(R9, 0x100001DC)  returns 0x00 (0000ms, 1106ms total)
T3398 001:701 JLINK_WriteReg(R10, 0x00000000)  returns 0x00 (0000ms, 1106ms total)
T3398 001:701 JLINK_WriteReg(R11, 0x00000000)  returns 0x00 (0000ms, 1106ms total)
T3398 001:701 JLINK_WriteReg(R12, 0x00000000)  returns 0x00 (0000ms, 1106ms total)
T3398 001:701 JLINK_WriteReg(R13 (SP), 0x10000800)  returns 0x00 (0000ms, 1106ms total)
T3398 001:701 JLINK_WriteReg(R14, 0x10000001)  returns 0x00 (0000ms, 1106ms total)
T3398 001:701 JLINK_WriteReg(R15 (PC), 0x10000110)  returns 0x00 (0000ms, 1106ms total)
T3398 001:701 JLINK_WriteReg(XPSR, 0x01000000)  returns 0x00 (0000ms, 1106ms total)
T3398 001:701 JLINK_WriteReg(MSP, 0x10000800)  returns 0x00 (0000ms, 1106ms total)
T3398 001:701 JLINK_WriteReg(PSP, 0x10000800)  returns 0x00 (0000ms, 1106ms total)
T3398 001:701 JLINK_WriteReg(CFBP, 0x00000000)  returns 0x00 (0000ms, 1106ms total)
T3398 001:701 JLINK_SetBPEx(Addr = 0x10000000, Type = 0xFFFFFFF2)  returns 0x00000007 (0000ms, 1106ms total)
T3398 001:701 JLINK_Go() (0002ms, 1108ms total)
T3398 001:703 JLINK_IsHalted()  returns FALSE (0002ms, 1110ms total)
T3398 001:755 JLINK_IsHalted()  returns FALSE (0001ms, 1109ms total)
T3398 001:807 JLINK_IsHalted()  returns TRUE (0005ms, 1113ms total)
T3398 001:812 JLINK_ReadReg(R15 (PC))  returns 0x10000000 (0000ms, 1108ms total)
T3398 001:812 JLINK_ClrBPEx(BPHandle = 0x00000007)  returns 0x00 (0000ms, 1108ms total)
T3398 001:812 JLINK_ReadReg(R0)  returns 0x00000000 (0000ms, 1108ms total)
T3398 001:814 JLINK_WriteReg(R0, 0x00003000)  returns 0x00 (0000ms, 1108ms total)
T3398 001:814 JLINK_WriteReg(R1, 0x00001000)  returns 0x00 (0000ms, 1108ms total)
T3398 001:814 JLINK_WriteReg(R2, 0x000000FF)  returns 0x00 (0000ms, 1108ms total)
T3398 001:814 JLINK_WriteReg(R3, 0x00000000)  returns 0x00 (0000ms, 1108ms total)
T3398 001:814 JLINK_WriteReg(R4, 0x00000000)  returns 0x00 (0000ms, 1108ms total)
T3398 001:814 JLINK_WriteReg(R5, 0x00000000)  returns 0x00 (0000ms, 1108ms total)
T3398 001:814 JLINK_WriteReg(R6, 0x00000000)  returns 0x00 (0000ms, 1108ms total)
T3398 001:814 JLINK_WriteReg(R7, 0x00000000)  returns 0x00 (0000ms, 1108ms total)
T3398 001:814 JLINK_WriteReg(R8, 0x00000000)  returns 0x00 (0000ms, 1108ms total)
T3398 001:814 JLINK_WriteReg(R9, 0x100001DC)  returns 0x00 (0000ms, 1108ms total)
T3398 001:814 JLINK_WriteReg(R10, 0x00000000)  returns 0x00 (0000ms, 1108ms total)
T3398 001:814 JLINK_WriteReg(R11, 0x00000000)  returns 0x00 (0000ms, 1108ms total)
T3398 001:814 JLINK_WriteReg(R12, 0x00000000)  returns 0x00 (0000ms, 1108ms total)
T3398 001:814 JLINK_WriteReg(R13 (SP), 0x10000800)  returns 0x00 (0000ms, 1108ms total)
T3398 001:814 JLINK_WriteReg(R14, 0x10000001)  returns 0x00 (0000ms, 1108ms total)
T3398 001:814 JLINK_WriteReg(R15 (PC), 0x10000020)  returns 0x00 (0000ms, 1108ms total)
T3398 001:814 JLINK_WriteReg(XPSR, 0x01000000)  returns 0x00 (0000ms, 1108ms total)
T3398 001:814 JLINK_WriteReg(MSP, 0x10000800)  returns 0x00 (0000ms, 1108ms total)
T3398 001:814 JLINK_WriteReg(PSP, 0x10000800)  returns 0x00 (0000ms, 1108ms total)
T3398 001:814 JLINK_WriteReg(CFBP, 0x00000000)  returns 0x00 (0000ms, 1108ms total)
T3398 001:814 JLINK_SetBPEx(Addr = 0x10000000, Type = 0xFFFFFFF2)  returns 0x00000008 (0000ms, 1108ms total)
T3398 001:814 JLINK_Go() (0003ms, 1111ms total)
T3398 001:817 JLINK_IsHalted()  returns TRUE (0005ms, 1116ms total)
T3398 001:822 JLINK_ReadReg(R15 (PC))  returns 0x10000000 (0000ms, 1111ms total)
T3398 001:822 JLINK_ClrBPEx(BPHandle = 0x00000008)  returns 0x00 (0000ms, 1111ms total)
T3398 001:822 JLINK_ReadReg(R0)  returns 0x00000001 (0000ms, 1111ms total)
T3398 001:822 JLINK_WriteReg(R0, 0x00003000)  returns 0x00 (0000ms, 1111ms total)
T3398 001:822 JLINK_WriteReg(R1, 0x00001000)  returns 0x00 (0000ms, 1111ms total)
T3398 001:822 JLINK_WriteReg(R2, 0x000000FF)  returns 0x00 (0000ms, 1111ms total)
T3398 001:822 JLINK_WriteReg(R3, 0x00000000)  returns 0x00 (0000ms, 1111ms total)
T3398 001:822 JLINK_WriteReg(R4, 0x00000000)  returns 0x00 (0000ms, 1111ms total)
T3398 001:822 JLINK_WriteReg(R5, 0x00000000)  returns 0x00 (0000ms, 1111ms total)
T3398 001:822 JLINK_WriteReg(R6, 0x00000000)  returns 0x00 (0001ms, 1112ms total)
T3398 001:823 JLINK_WriteReg(R7, 0x00000000)  returns 0x00 (0000ms, 1112ms total)
T3398 001:823 JLINK_WriteReg(R8, 0x00000000)  returns 0x00 (0000ms, 1112ms total)
T3398 001:824 JLINK_WriteReg(R9, 0x100001DC)  returns 0x00 (0000ms, 1112ms total)
T3398 001:824 JLINK_WriteReg(R10, 0x00000000)  returns 0x00 (0000ms, 1112ms total)
T3398 001:824 JLINK_WriteReg(R11, 0x00000000)  returns 0x00 (0000ms, 1112ms total)
T3398 001:824 JLINK_WriteReg(R12, 0x00000000)  returns 0x00 (0000ms, 1112ms total)
T3398 001:824 JLINK_WriteReg(R13 (SP), 0x10000800)  returns 0x00 (0000ms, 1112ms total)
T3398 001:824 JLINK_WriteReg(R14, 0x10000001)  returns 0x00 (0000ms, 1112ms total)
T3398 001:824 JLINK_WriteReg(R15 (PC), 0x10000110)  returns 0x00 (0000ms, 1112ms total)
T3398 001:824 JLINK_WriteReg(XPSR, 0x01000000)  returns 0x00 (0000ms, 1112ms total)
T3398 001:824 JLINK_WriteReg(MSP, 0x10000800)  returns 0x00 (0000ms, 1112ms total)
T3398 001:824 JLINK_WriteReg(PSP, 0x10000800)  returns 0x00 (0000ms, 1112ms total)
T3398 001:824 JLINK_WriteReg(CFBP, 0x00000000)  returns 0x00 (0000ms, 1112ms total)
T3398 001:824 JLINK_SetBPEx(Addr = 0x10000000, Type = 0xFFFFFFF2)  returns 0x00000009 (0000ms, 1112ms total)
T3398 001:824 JLINK_Go() (0003ms, 1115ms total)
T3398 001:827 JLINK_IsHalted()  returns FALSE (0001ms, 1116ms total)
T3398 001:878 JLINK_IsHalted()  returns FALSE (0001ms, 1116ms total)
T3398 001:930 JLINK_IsHalted()  returns TRUE (0005ms, 1120ms total)
T3398 001:935 JLINK_ReadReg(R15 (PC))  returns 0x10000000 (0000ms, 1115ms total)
T3398 001:935 JLINK_ClrBPEx(BPHandle = 0x00000009)  returns 0x00 (0000ms, 1115ms total)
T3398 001:935 JLINK_ReadReg(R0)  returns 0x00000000 (0000ms, 1115ms total)
T3398 001:935 JLINK_WriteReg(R0, 0x00004000)  returns 0x00 (0000ms, 1115ms total)
T3398 001:935 JLINK_WriteReg(R1, 0x00001000)  returns 0x00 (0000ms, 1115ms total)
T3398 001:935 JLINK_WriteReg(R2, 0x000000FF)  returns 0x00 (0000ms, 1115ms total)
T3398 001:935 JLINK_WriteReg(R3, 0x00000000)  returns 0x00 (0000ms, 1115ms total)
T3398 001:935 JLINK_WriteReg(R4, 0x00000000)  returns 0x00 (0000ms, 1115ms total)
T3398 001:935 JLINK_WriteReg(R5, 0x00000000)  returns 0x00 (0000ms, 1115ms total)
T3398 001:935 JLINK_WriteReg(R6, 0x00000000)  returns 0x00 (0000ms, 1115ms total)
T3398 001:935 JLINK_WriteReg(R7, 0x00000000)  returns 0x00 (0000ms, 1115ms total)
T3398 001:935 JLINK_WriteReg(R8, 0x00000000)  returns 0x00 (0000ms, 1115ms total)
T3398 001:935 JLINK_WriteReg(R9, 0x100001DC)  returns 0x00 (0000ms, 1115ms total)
T3398 001:935 JLINK_WriteReg(R10, 0x00000000)  returns 0x00 (0000ms, 1115ms total)
T3398 001:935 JLINK_WriteReg(R11, 0x00000000)  returns 0x00 (0000ms, 1115ms total)
T3398 001:935 JLINK_WriteReg(R12, 0x00000000)  returns 0x00 (0000ms, 1115ms total)
T3398 001:935 JLINK_WriteReg(R13 (SP), 0x10000800)  returns 0x00 (0000ms, 1115ms total)
T3398 001:935 JLINK_WriteReg(R14, 0x10000001)  returns 0x00 (0000ms, 1115ms total)
T3398 001:935 JLINK_WriteReg(R15 (PC), 0x10000020)  returns 0x00 (0000ms, 1115ms total)
T3398 001:935 JLINK_WriteReg(XPSR, 0x01000000)  returns 0x00 (0000ms, 1115ms total)
T3398 001:935 JLINK_WriteReg(MSP, 0x10000800)  returns 0x00 (0001ms, 1116ms total)
T3398 001:936 JLINK_WriteReg(PSP, 0x10000800)  returns 0x00 (0000ms, 1116ms total)
T3398 001:936 JLINK_WriteReg(CFBP, 0x00000000)  returns 0x00 (0000ms, 1116ms total)
T3398 001:936 JLINK_SetBPEx(Addr = 0x10000000, Type = 0xFFFFFFF2)  returns 0x0000000A (0000ms, 1116ms total)
T3398 001:936 JLINK_Go() (0002ms, 1118ms total)
T3398 001:938 JLINK_IsHalted()  returns TRUE (0005ms, 1123ms total)
T3398 001:943 JLINK_ReadReg(R15 (PC))  returns 0x10000000 (0000ms, 1118ms total)
T3398 001:943 JLINK_ClrBPEx(BPHandle = 0x0000000A)  returns 0x00 (0000ms, 1118ms total)
T3398 001:943 JLINK_ReadReg(R0)  returns 0x00000001 (0000ms, 1118ms total)
T3398 001:943 JLINK_WriteReg(R0, 0x00004000)  returns 0x00 (0000ms, 1118ms total)
T3398 001:943 JLINK_WriteReg(R1, 0x00001000)  returns 0x00 (0000ms, 1118ms total)
T3398 001:943 JLINK_WriteReg(R2, 0x000000FF)  returns 0x00 (0000ms, 1118ms total)
T3398 001:943 JLINK_WriteReg(R3, 0x00000000)  returns 0x00 (0000ms, 1118ms total)
T3398 001:943 JLINK_WriteReg(R4, 0x00000000)  returns 0x00 (0000ms, 1118ms total)
T3398 001:943 JLINK_WriteReg(R5, 0x00000000)  returns 0x00 (0000ms, 1118ms total)
T3398 001:943 JLINK_WriteReg(R6, 0x00000000)  returns 0x00 (0000ms, 1118ms total)
T3398 001:943 JLINK_WriteReg(R7, 0x00000000)  returns 0x00 (0000ms, 1118ms total)
T3398 001:943 JLINK_WriteReg(R8, 0x00000000)  returns 0x00 (0000ms, 1118ms total)
T3398 001:943 JLINK_WriteReg(R9, 0x100001DC)  returns 0x00 (0000ms, 1118ms total)
T3398 001:943 JLINK_WriteReg(R10, 0x00000000)  returns 0x00 (0000ms, 1118ms total)
T3398 001:943 JLINK_WriteReg(R11, 0x00000000)  returns 0x00 (0000ms, 1118ms total)
T3398 001:943 JLINK_WriteReg(R12, 0x00000000)  returns 0x00 (0000ms, 1118ms total)
T3398 001:943 JLINK_WriteReg(R13 (SP), 0x10000800)  returns 0x00 (0000ms, 1118ms total)
T3398 001:943 JLINK_WriteReg(R14, 0x10000001)  returns 0x00 (0000ms, 1118ms total)
T3398 001:943 JLINK_WriteReg(R15 (PC), 0x10000110)  returns 0x00 (0000ms, 1118ms total)
T3398 001:943 JLINK_WriteReg(XPSR, 0x01000000)  returns 0x00 (0000ms, 1118ms total)
T3398 001:943 JLINK_WriteReg(MSP, 0x10000800)  returns 0x00 (0000ms, 1118ms total)
T3398 001:943 JLINK_WriteReg(PSP, 0x10000800)  returns 0x00 (0001ms, 1119ms total)
T3398 001:944 JLINK_WriteReg(CFBP, 0x00000000)  returns 0x00 (0000ms, 1119ms total)
T3398 001:944 JLINK_SetBPEx(Addr = 0x10000000, Type = 0xFFFFFFF2)  returns 0x0000000B (0000ms, 1119ms total)
T3398 001:944 JLINK_Go() (0002ms, 1121ms total)
T3398 001:946 JLINK_IsHalted()  returns FALSE (0001ms, 1122ms total)
T3398 001:997 JLINK_IsHalted()  returns FALSE (0001ms, 1122ms total)
T3398 002:048 JLINK_IsHalted()  returns TRUE (0006ms, 1127ms total)
T3398 002:054 JLINK_ReadReg(R15 (PC))  returns 0x10000000 (0000ms, 1121ms total)
T3398 002:054 JLINK_ClrBPEx(BPHandle = 0x0000000B)  returns 0x00 (0000ms, 1121ms total)
T3398 002:054 JLINK_ReadReg(R0)  returns 0x00000000 (0000ms, 1121ms total)
T3398 002:054 JLINK_WriteReg(R0, 0x00005000)  returns 0x00 (0000ms, 1121ms total)
T3398 002:054 JLINK_WriteReg(R1, 0x00001000)  returns 0x00 (0000ms, 1121ms total)
T3398 002:054 JLINK_WriteReg(R2, 0x000000FF)  returns 0x00 (0000ms, 1121ms total)
T3398 002:054 JLINK_WriteReg(R3, 0x00000000)  returns 0x00 (0000ms, 1121ms total)
T3398 002:054 JLINK_WriteReg(R4, 0x00000000)  returns 0x00 (0000ms, 1121ms total)
T3398 002:054 JLINK_WriteReg(R5, 0x00000000)  returns 0x00 (0000ms, 1121ms total)
T3398 002:054 JLINK_WriteReg(R6, 0x00000000)  returns 0x00 (0000ms, 1121ms total)
T3398 002:054 JLINK_WriteReg(R7, 0x00000000)  returns 0x00 (0000ms, 1121ms total)
T3398 002:054 JLINK_WriteReg(R8, 0x00000000)  returns 0x00 (0000ms, 1121ms total)
T3398 002:054 JLINK_WriteReg(R9, 0x100001DC)  returns 0x00 (0000ms, 1121ms total)
T3398 002:054 JLINK_WriteReg(R10, 0x00000000)  returns 0x00 (0000ms, 1121ms total)
T3398 002:054 JLINK_WriteReg(R11, 0x00000000)  returns 0x00 (0000ms, 1121ms total)
T3398 002:054 JLINK_WriteReg(R12, 0x00000000)  returns 0x00 (0000ms, 1121ms total)
T3398 002:054 JLINK_WriteReg(R13 (SP), 0x10000800)  returns 0x00 (0000ms, 1121ms total)
T3398 002:054 JLINK_WriteReg(R14, 0x10000001)  returns 0x00 (0000ms, 1121ms total)
T3398 002:054 JLINK_WriteReg(R15 (PC), 0x10000020)  returns 0x00 (0000ms, 1121ms total)
T3398 002:054 JLINK_WriteReg(XPSR, 0x01000000)  returns 0x00 (0000ms, 1121ms total)
T3398 002:054 JLINK_WriteReg(MSP, 0x10000800)  returns 0x00 (0000ms, 1121ms total)
T3398 002:054 JLINK_WriteReg(PSP, 0x10000800)  returns 0x00 (0000ms, 1121ms total)
T3398 002:054 JLINK_WriteReg(CFBP, 0x00000000)  returns 0x00 (0000ms, 1121ms total)
T3398 002:054 JLINK_SetBPEx(Addr = 0x10000000, Type = 0xFFFFFFF2)  returns 0x0000000C (0000ms, 1121ms total)
T3398 002:054 JLINK_Go() (0003ms, 1124ms total)
T3398 002:057 JLINK_IsHalted()  returns TRUE (0005ms, 1129ms total)
T3398 002:062 JLINK_ReadReg(R15 (PC))  returns 0x10000000 (0000ms, 1124ms total)
T3398 002:062 JLINK_ClrBPEx(BPHandle = 0x0000000C)  returns 0x00 (0000ms, 1124ms total)
T3398 002:062 JLINK_ReadReg(R0)  returns 0x00000001 (0000ms, 1124ms total)
T3398 002:062 JLINK_WriteReg(R0, 0x00005000)  returns 0x00 (0000ms, 1124ms total)
T3398 002:062 JLINK_WriteReg(R1, 0x00001000)  returns 0x00 (0000ms, 1124ms total)
T3398 002:062 JLINK_WriteReg(R2, 0x000000FF)  returns 0x00 (0000ms, 1124ms total)
T3398 002:062 JLINK_WriteReg(R3, 0x00000000)  returns 0x00 (0000ms, 1124ms total)
T3398 002:062 JLINK_WriteReg(R4, 0x00000000)  returns 0x00 (0000ms, 1124ms total)
T3398 002:062 JLINK_WriteReg(R5, 0x00000000)  returns 0x00 (0000ms, 1124ms total)
T3398 002:062 JLINK_WriteReg(R6, 0x00000000)  returns 0x00 (0000ms, 1124ms total)
T3398 002:062 JLINK_WriteReg(R7, 0x00000000)  returns 0x00 (0000ms, 1124ms total)
T3398 002:062 JLINK_WriteReg(R8, 0x00000000)  returns 0x00 (0000ms, 1124ms total)
T3398 002:062 JLINK_WriteReg(R9, 0x100001DC)  returns 0x00 (0000ms, 1124ms total)
T3398 002:062 JLINK_WriteReg(R10, 0x00000000)  returns 0x00 (0000ms, 1124ms total)
T3398 002:062 JLINK_WriteReg(R11, 0x00000000)  returns 0x00 (0000ms, 1124ms total)
T3398 002:062 JLINK_WriteReg(R12, 0x00000000)  returns 0x00 (0000ms, 1124ms total)
T3398 002:062 JLINK_WriteReg(R13 (SP), 0x10000800)  returns 0x00 (0000ms, 1124ms total)
T3398 002:062 JLINK_WriteReg(R14, 0x10000001)  returns 0x00 (0000ms, 1124ms total)
T3398 002:062 JLINK_WriteReg(R15 (PC), 0x10000110)  returns 0x00 (0000ms, 1124ms total)
T3398 002:062 JLINK_WriteReg(XPSR, 0x01000000)  returns 0x00 (0000ms, 1124ms total)
T3398 002:062 JLINK_WriteReg(MSP, 0x10000800)  returns 0x00 (0000ms, 1124ms total)
T3398 002:062 JLINK_WriteReg(PSP, 0x10000800)  returns 0x00 (0000ms, 1124ms total)
T3398 002:062 JLINK_WriteReg(CFBP, 0x00000000)  returns 0x00 (0000ms, 1124ms total)
T3398 002:062 JLINK_SetBPEx(Addr = 0x10000000, Type = 0xFFFFFFF2)  returns 0x0000000D (0000ms, 1124ms total)
T3398 002:062 JLINK_Go() (0003ms, 1127ms total)
T3398 002:065 JLINK_IsHalted()  returns FALSE (0001ms, 1128ms total)
T3398 002:116 JLINK_IsHalted()  returns FALSE (0001ms, 1128ms total)
T3398 002:168 JLINK_IsHalted()  returns TRUE (0005ms, 1132ms total)
T3398 002:173 JLINK_ReadReg(R15 (PC))  returns 0x10000000 (0000ms, 1127ms total)
T3398 002:173 JLINK_ClrBPEx(BPHandle = 0x0000000D)  returns 0x00 (0001ms, 1128ms total)
T3398 002:174 JLINK_ReadReg(R0)  returns 0x00000000 (0000ms, 1128ms total)
T3398 002:175 JLINK_WriteReg(R0, 0x00006000)  returns 0x00 (0000ms, 1128ms total)
T3398 002:175 JLINK_WriteReg(R1, 0x00001000)  returns 0x00 (0000ms, 1128ms total)
T3398 002:175 JLINK_WriteReg(R2, 0x000000FF)  returns 0x00 (0000ms, 1128ms total)
T3398 002:175 JLINK_WriteReg(R3, 0x00000000)  returns 0x00 (0000ms, 1128ms total)
T3398 002:175 JLINK_WriteReg(R4, 0x00000000)  returns 0x00 (0000ms, 1128ms total)
T3398 002:175 JLINK_WriteReg(R5, 0x00000000)  returns 0x00 (0000ms, 1128ms total)
T3398 002:175 JLINK_WriteReg(R6, 0x00000000)  returns 0x00 (0000ms, 1128ms total)
T3398 002:175 JLINK_WriteReg(R7, 0x00000000)  returns 0x00 (0000ms, 1128ms total)
T3398 002:175 JLINK_WriteReg(R8, 0x00000000)  returns 0x00 (0000ms, 1128ms total)
T3398 002:175 JLINK_WriteReg(R9, 0x100001DC)  returns 0x00 (0000ms, 1128ms total)
T3398 002:175 JLINK_WriteReg(R10, 0x00000000)  returns 0x00 (0000ms, 1128ms total)
T3398 002:175 JLINK_WriteReg(R11, 0x00000000)  returns 0x00 (0000ms, 1128ms total)
T3398 002:175 JLINK_WriteReg(R12, 0x00000000)  returns 0x00 (0000ms, 1128ms total)
T3398 002:175 JLINK_WriteReg(R13 (SP), 0x10000800)  returns 0x00 (0000ms, 1128ms total)
T3398 002:175 JLINK_WriteReg(R14, 0x10000001)  returns 0x00 (0000ms, 1128ms total)
T3398 002:175 JLINK_WriteReg(R15 (PC), 0x10000020)  returns 0x00 (0000ms, 1128ms total)
T3398 002:175 JLINK_WriteReg(XPSR, 0x01000000)  returns 0x00 (0000ms, 1128ms total)
T3398 002:175 JLINK_WriteReg(MSP, 0x10000800)  returns 0x00 (0000ms, 1128ms total)
T3398 002:175 JLINK_WriteReg(PSP, 0x10000800)  returns 0x00 (0000ms, 1128ms total)
T3398 002:175 JLINK_WriteReg(CFBP, 0x00000000)  returns 0x00 (0001ms, 1129ms total)
T3398 002:176 JLINK_SetBPEx(Addr = 0x10000000, Type = 0xFFFFFFF2)  returns 0x0000000E (0000ms, 1129ms total)
T3398 002:176 JLINK_Go() (0002ms, 1131ms total)
T3398 002:178 JLINK_IsHalted()  returns TRUE (0005ms, 1136ms total)
T3398 002:183 JLINK_ReadReg(R15 (PC))  returns 0x10000000 (0000ms, 1131ms total)
T3398 002:183 JLINK_ClrBPEx(BPHandle = 0x0000000E)  returns 0x00 (0000ms, 1131ms total)
T3398 002:183 JLINK_ReadReg(R0)  returns 0x00000001 (0000ms, 1131ms total)
T3398 002:183 JLINK_WriteReg(R0, 0x00006000)  returns 0x00 (0000ms, 1131ms total)
T3398 002:183 JLINK_WriteReg(R1, 0x00001000)  returns 0x00 (0000ms, 1131ms total)
T3398 002:183 JLINK_WriteReg(R2, 0x000000FF)  returns 0x00 (0000ms, 1131ms total)
T3398 002:183 JLINK_WriteReg(R3, 0x00000000)  returns 0x00 (0001ms, 1132ms total)
T3398 002:184 JLINK_WriteReg(R4, 0x00000000)  returns 0x00 (0000ms, 1132ms total)
T3398 002:184 JLINK_WriteReg(R5, 0x00000000)  returns 0x00 (0000ms, 1132ms total)
T3398 002:184 JLINK_WriteReg(R6, 0x00000000)  returns 0x00 (0000ms, 1132ms total)
T3398 002:184 JLINK_WriteReg(R7, 0x00000000)  returns 0x00 (0000ms, 1132ms total)
T3398 002:184 JLINK_WriteReg(R8, 0x00000000)  returns 0x00 (0000ms, 1132ms total)
T3398 002:184 JLINK_WriteReg(R9, 0x100001DC)  returns 0x00 (0000ms, 1132ms total)
T3398 002:184 JLINK_WriteReg(R10, 0x00000000)  returns 0x00 (0000ms, 1132ms total)
T3398 002:184 JLINK_WriteReg(R11, 0x00000000)  returns 0x00 (0000ms, 1132ms total)
T3398 002:184 JLINK_WriteReg(R12, 0x00000000)  returns 0x00 (0000ms, 1132ms total)
T3398 002:184 JLINK_WriteReg(R13 (SP), 0x10000800)  returns 0x00 (0000ms, 1132ms total)
T3398 002:184 JLINK_WriteReg(R14, 0x10000001)  returns 0x00 (0000ms, 1132ms total)
T3398 002:184 JLINK_WriteReg(R15 (PC), 0x10000110)  returns 0x00 (0000ms, 1132ms total)
T3398 002:184 JLINK_WriteReg(XPSR, 0x01000000)  returns 0x00 (0000ms, 1132ms total)
T3398 002:184 JLINK_WriteReg(MSP, 0x10000800)  returns 0x00 (0000ms, 1132ms total)
T3398 002:184 JLINK_WriteReg(PSP, 0x10000800)  returns 0x00 (0000ms, 1132ms total)
T3398 002:184 JLINK_WriteReg(CFBP, 0x00000000)  returns 0x00 (0000ms, 1132ms total)
T3398 002:184 JLINK_SetBPEx(Addr = 0x10000000, Type = 0xFFFFFFF2)  returns 0x0000000F (0000ms, 1132ms total)
T3398 002:184 JLINK_Go() (0002ms, 1134ms total)
T3398 002:187 JLINK_IsHalted()  returns FALSE (0000ms, 1135ms total)
T3398 002:238 JLINK_IsHalted()  returns FALSE (0002ms, 1137ms total)
T3398 002:290 JLINK_IsHalted()  returns TRUE (0006ms, 1141ms total)
T3398 002:296 JLINK_ReadReg(R15 (PC))  returns 0x10000000 (0000ms, 1135ms total)
T3398 002:296 JLINK_ClrBPEx(BPHandle = 0x0000000F)  returns 0x00 (0000ms, 1135ms total)
T3398 002:296 JLINK_ReadReg(R0)  returns 0x00000000 (0000ms, 1135ms total)
T3398 002:297 JLINK_WriteReg(R0, 0x00007000)  returns 0x00 (0000ms, 1135ms total)
T3398 002:297 JLINK_WriteReg(R1, 0x00001000)  returns 0x00 (0000ms, 1135ms total)
T3398 002:297 JLINK_WriteReg(R2, 0x000000FF)  returns 0x00 (0000ms, 1135ms total)
T3398 002:297 JLINK_WriteReg(R3, 0x00000000)  returns 0x00 (0000ms, 1135ms total)
T3398 002:297 JLINK_WriteReg(R4, 0x00000000)  returns 0x00 (0000ms, 1135ms total)
T3398 002:297 JLINK_WriteReg(R5, 0x00000000)  returns 0x00 (0000ms, 1135ms total)
T3398 002:297 JLINK_WriteReg(R6, 0x00000000)  returns 0x00 (0000ms, 1135ms total)
T3398 002:297 JLINK_WriteReg(R7, 0x00000000)  returns 0x00 (0000ms, 1135ms total)
T3398 002:297 JLINK_WriteReg(R8, 0x00000000)  returns 0x00 (0001ms, 1136ms total)
T3398 002:298 JLINK_WriteReg(R9, 0x100001DC)  returns 0x00 (0000ms, 1136ms total)
T3398 002:298 JLINK_WriteReg(R10, 0x00000000)  returns 0x00 (0000ms, 1136ms total)
T3398 002:298 JLINK_WriteReg(R11, 0x00000000)  returns 0x00 (0000ms, 1136ms total)
T3398 002:298 JLINK_WriteReg(R12, 0x00000000)  returns 0x00 (0000ms, 1136ms total)
T3398 002:298 JLINK_WriteReg(R13 (SP), 0x10000800)  returns 0x00 (0000ms, 1136ms total)
T3398 002:298 JLINK_WriteReg(R14, 0x10000001)  returns 0x00 (0000ms, 1136ms total)
T3398 002:298 JLINK_WriteReg(R15 (PC), 0x10000020)  returns 0x00 (0000ms, 1136ms total)
T3398 002:298 JLINK_WriteReg(XPSR, 0x01000000)  returns 0x00 (0000ms, 1136ms total)
T3398 002:298 JLINK_WriteReg(MSP, 0x10000800)  returns 0x00 (0000ms, 1136ms total)
T3398 002:298 JLINK_WriteReg(PSP, 0x10000800)  returns 0x00 (0000ms, 1136ms total)
T3398 002:298 JLINK_WriteReg(CFBP, 0x00000000)  returns 0x00 (0000ms, 1136ms total)
T3398 002:298 JLINK_SetBPEx(Addr = 0x10000000, Type = 0xFFFFFFF2)  returns 0x00000010 (0000ms, 1136ms total)
T3398 002:298 JLINK_Go() (0003ms, 1139ms total)
T3398 002:301 JLINK_IsHalted()  returns TRUE (0005ms, 1144ms total)
T3398 002:306 JLINK_ReadReg(R15 (PC))  returns 0x10000000 (0000ms, 1139ms total)
T3398 002:306 JLINK_ClrBPEx(BPHandle = 0x00000010)  returns 0x00 (0000ms, 1139ms total)
T3398 002:306 JLINK_ReadReg(R0)  returns 0x00000001 (0000ms, 1139ms total)
T3398 002:306 JLINK_WriteReg(R0, 0x00007000)  returns 0x00 (0000ms, 1139ms total)
T3398 002:306 JLINK_WriteReg(R1, 0x00001000)  returns 0x00 (0000ms, 1139ms total)
T3398 002:306 JLINK_WriteReg(R2, 0x000000FF)  returns 0x00 (0000ms, 1139ms total)
T3398 002:306 JLINK_WriteReg(R3, 0x00000000)  returns 0x00 (0000ms, 1139ms total)
T3398 002:306 JLINK_WriteReg(R4, 0x00000000)  returns 0x00 (0001ms, 1140ms total)
T3398 002:307 JLINK_WriteReg(R5, 0x00000000)  returns 0x00 (0000ms, 1140ms total)
T3398 002:307 JLINK_WriteReg(R6, 0x00000000)  returns 0x00 (0000ms, 1140ms total)
T3398 002:307 JLINK_WriteReg(R7, 0x00000000)  returns 0x00 (0000ms, 1140ms total)
T3398 002:307 JLINK_WriteReg(R8, 0x00000000)  returns 0x00 (0000ms, 1140ms total)
T3398 002:307 JLINK_WriteReg(R9, 0x100001DC)  returns 0x00 (0000ms, 1140ms total)
T3398 002:307 JLINK_WriteReg(R10, 0x00000000)  returns 0x00 (0000ms, 1140ms total)
T3398 002:307 JLINK_WriteReg(R11, 0x00000000)  returns 0x00 (0000ms, 1140ms total)
T3398 002:307 JLINK_WriteReg(R12, 0x00000000)  returns 0x00 (0000ms, 1140ms total)
T3398 002:307 JLINK_WriteReg(R13 (SP), 0x10000800)  returns 0x00 (0000ms, 1140ms total)
T3398 002:307 JLINK_WriteReg(R14, 0x10000001)  returns 0x00 (0000ms, 1140ms total)
T3398 002:307 JLINK_WriteReg(R15 (PC), 0x10000110)  returns 0x00 (0000ms, 1140ms total)
T3398 002:307 JLINK_WriteReg(XPSR, 0x01000000)  returns 0x00 (0000ms, 1140ms total)
T3398 002:307 JLINK_WriteReg(MSP, 0x10000800)  returns 0x00 (0000ms, 1140ms total)
T3398 002:307 JLINK_WriteReg(PSP, 0x10000800)  returns 0x00 (0000ms, 1140ms total)
T3398 002:307 JLINK_WriteReg(CFBP, 0x00000000)  returns 0x00 (0000ms, 1140ms total)
T3398 002:307 JLINK_SetBPEx(Addr = 0x10000000, Type = 0xFFFFFFF2)  returns 0x00000011 (0000ms, 1140ms total)
T3398 002:307 JLINK_Go() (0002ms, 1142ms total)
T3398 002:309 JLINK_IsHalted()  returns FALSE (0001ms, 1143ms total)
T3398 002:361 JLINK_IsHalted()  returns FALSE (0001ms, 1143ms total)
T3398 002:412 JLINK_IsHalted()  returns TRUE (0006ms, 1148ms total)
T3398 002:418 JLINK_ReadReg(R15 (PC))  returns 0x10000000 (0000ms, 1142ms total)
T3398 002:418 JLINK_ClrBPEx(BPHandle = 0x00000011)  returns 0x00 (0000ms, 1142ms total)
T3398 002:418 JLINK_ReadReg(R0)  returns 0x00000000 (0000ms, 1142ms total)
T3398 002:421 JLINK_WriteReg(R0, 0x00008000)  returns 0x00 (0000ms, 1142ms total)
T3398 002:421 JLINK_WriteReg(R1, 0x00001000)  returns 0x00 (0000ms, 1142ms total)
T3398 002:421 JLINK_WriteReg(R2, 0x000000FF)  returns 0x00 (0000ms, 1142ms total)
T3398 002:421 JLINK_WriteReg(R3, 0x00000000)  returns 0x00 (0000ms, 1142ms total)
T3398 002:421 JLINK_WriteReg(R4, 0x00000000)  returns 0x00 (0000ms, 1142ms total)
T3398 002:421 JLINK_WriteReg(R5, 0x00000000)  returns 0x00 (0000ms, 1142ms total)
T3398 002:421 JLINK_WriteReg(R6, 0x00000000)  returns 0x00 (0000ms, 1142ms total)
T3398 002:421 JLINK_WriteReg(R7, 0x00000000)  returns 0x00 (0000ms, 1142ms total)
T3398 002:422 JLINK_WriteReg(R8, 0x00000000)  returns 0x00 (0000ms, 1143ms total)
T3398 002:422 JLINK_WriteReg(R9, 0x100001DC)  returns 0x00 (0000ms, 1143ms total)
T3398 002:422 JLINK_WriteReg(R10, 0x00000000)  returns 0x00 (0000ms, 1143ms total)
T3398 002:422 JLINK_WriteReg(R11, 0x00000000)  returns 0x00 (0000ms, 1143ms total)
T3398 002:422 JLINK_WriteReg(R12, 0x00000000)  returns 0x00 (0000ms, 1143ms total)
T3398 002:422 JLINK_WriteReg(R13 (SP), 0x10000800)  returns 0x00 (0000ms, 1143ms total)
T3398 002:422 JLINK_WriteReg(R14, 0x10000001)  returns 0x00 (0000ms, 1143ms total)
T3398 002:422 JLINK_WriteReg(R15 (PC), 0x10000020)  returns 0x00 (0000ms, 1143ms total)
T3398 002:422 JLINK_WriteReg(XPSR, 0x01000000)  returns 0x00 (0000ms, 1143ms total)
T3398 002:422 JLINK_WriteReg(MSP, 0x10000800)  returns 0x00 (0000ms, 1143ms total)
T3398 002:422 JLINK_WriteReg(PSP, 0x10000800)  returns 0x00 (0000ms, 1143ms total)
T3398 002:423 JLINK_WriteReg(CFBP, 0x00000000)  returns 0x00 (0000ms, 1143ms total)
T3398 002:423 JLINK_SetBPEx(Addr = 0x10000000, Type = 0xFFFFFFF2)  returns 0x00000012 (0000ms, 1143ms total)
T3398 002:423 JLINK_Go() (0003ms, 1146ms total)
T3398 002:426 JLINK_IsHalted()  returns TRUE (0006ms, 1152ms total)
T3398 002:432 JLINK_ReadReg(R15 (PC))  returns 0x10000000 (0000ms, 1146ms total)
T3398 002:433 JLINK_ClrBPEx(BPHandle = 0x00000012)  returns 0x00 (0000ms, 1147ms total)
T3398 002:433 JLINK_ReadReg(R0)  returns 0x00000001 (0000ms, 1147ms total)
T3398 002:433 JLINK_WriteReg(R0, 0x00008000)  returns 0x00 (0000ms, 1147ms total)
T3398 002:433 JLINK_WriteReg(R1, 0x00001000)  returns 0x00 (0000ms, 1147ms total)
T3398 002:433 JLINK_WriteReg(R2, 0x000000FF)  returns 0x00 (0000ms, 1147ms total)
T3398 002:433 JLINK_WriteReg(R3, 0x00000000)  returns 0x00 (0000ms, 1147ms total)
T3398 002:433 JLINK_WriteReg(R4, 0x00000000)  returns 0x00 (0000ms, 1147ms total)
T3398 002:433 JLINK_WriteReg(R5, 0x00000000)  returns 0x00 (0000ms, 1147ms total)
T3398 002:433 JLINK_WriteReg(R6, 0x00000000)  returns 0x00 (0000ms, 1147ms total)
T3398 002:433 JLINK_WriteReg(R7, 0x00000000)  returns 0x00 (0000ms, 1147ms total)
T3398 002:433 JLINK_WriteReg(R8, 0x00000000)  returns 0x00 (0000ms, 1147ms total)
T3398 002:433 JLINK_WriteReg(R9, 0x100001DC)  returns 0x00 (0000ms, 1147ms total)
T3398 002:433 JLINK_WriteReg(R10, 0x00000000)  returns 0x00 (0000ms, 1147ms total)
T3398 002:433 JLINK_WriteReg(R11, 0x00000000)  returns 0x00 (0000ms, 1147ms total)
T3398 002:433 JLINK_WriteReg(R12, 0x00000000)  returns 0x00 (0000ms, 1147ms total)
T3398 002:433 JLINK_WriteReg(R13 (SP), 0x10000800)  returns 0x00 (0000ms, 1147ms total)
T3398 002:433 JLINK_WriteReg(R14, 0x10000001)  returns 0x00 (0000ms, 1147ms total)
T3398 002:433 JLINK_WriteReg(R15 (PC), 0x10000110)  returns 0x00 (0000ms, 1147ms total)
T3398 002:433 JLINK_WriteReg(XPSR, 0x01000000)  returns 0x00 (0000ms, 1147ms total)
T3398 002:433 JLINK_WriteReg(MSP, 0x10000800)  returns 0x00 (0000ms, 1147ms total)
T3398 002:433 JLINK_WriteReg(PSP, 0x10000800)  returns 0x00 (0000ms, 1147ms total)
T3398 002:433 JLINK_WriteReg(CFBP, 0x00000000)  returns 0x00 (0000ms, 1147ms total)
